time,V(out_ipf),I(Lo+)-I(Lo-),I(Rf+)-I(Rf-),V(outp)-V(outn)
0,0,0,0,0
1.00E-16,3.58E-37,0,3.49E-10,0
2.00E-16,1.43E-36,0,6.98E-10,2.38E-07
4.00E-16,1.17E-35,0,1.40E-09,4.77E-07
8.00E-16,1.53E-34,0,2.68E-09,7.15E-07
1.60E-15,2.33E-33,0,5.47E-09,1.67E-06
3.20E-15,3.70E-32,0,1.11E-08,3.34E-06
6.40E-15,5.93E-31,0,2.21E-08,6.68E-06
1.28E-14,9.57E-30,0,4.42E-08,1.34E-05
2.56E-14,1.56E-28,0,8.85E-08,2.65E-05
5.12E-14,2.59E-27,0,1.77E-07,5.32E-05
1.02E-13,4.47E-26,0,3.54E-07,0.000106
2.05E-13,8.25E-25,0,7.08E-07,0.000212
4.10E-13,1.72E-23,0,1.42E-06,0.000425
8.19E-13,4.40E-22,0,2.83E-06,0.000845
1.64E-12,1.48E-20,0,5.66E-06,0.00164
3.28E-12,5.93E-19,0,1.13E-05,0.00306
6.39E-12,8.05E-18,0,2.21E-05,0.0053
9.73E-12,8.46E-17,0,3.36E-05,0.00712
1.53E-11,8.38E-16,0,5.27E-05,0.00903
2.17E-11,6.25E-15,0,7.48E-05,0.0098
3.09E-11,4.06E-14,0,0.000106,0.00868
4.09E-11,1.71E-13,0,0.000139,0.00499
5.09E-11,5.38E-13,0,0.000172,-0.00141
6.09E-11,1.42E-12,0,0.000204,-0.0108
7.09E-11,3.25E-12,0,0.000235,-0.0241
8.09E-11,6.63E-12,0,0.000265,-0.0423
9.00E-11,1.11E-11,0,0.000291,-0.0631
9.00E-11,1.11E-11,0,0.000291,-0.0633
9.01E-11,1.12E-11,0,0.000292,-0.0636
9.03E-11,1.13E-11,0,0.000292,-0.0641
9.07E-11,1.16E-11,0,0.000293,-0.0653
9.14E-11,1.21E-11,0,0.000295,-0.0677
9.30E-11,1.33E-11,0,0.0003,-0.0728
9.60E-11,1.60E-11,0,0.000308,-0.0827
1.00E-10,1.98E-11,0,0.000319,-0.0938
1.00E-10,2.02E-11,0,0.00032,-0.0941
1.01E-10,2.11E-11,0,0.000322,-0.0947
1.03E-10,2.30E-11,0,0.000326,-0.0959
1.06E-10,2.73E-11,0,0.000334,-0.0982
1.12E-10,3.76E-11,0,0.00035,-0.103
1.22E-10,5.79E-11,0,0.000374,-0.109
1.32E-10,8.26E-11,0,0.000396,-0.116
1.42E-10,1.11E-10,0,0.000416,-0.121
1.52E-10,1.38E-10,0,0.000434,-0.126
1.62E-10,1.57E-10,0,0.00045,-0.131
1.72E-10,1.56E-10,0,0.000464,-0.135
1.82E-10,1.16E-10,0,0.000476,-0.138
1.92E-10,1.39E-11,0,0.000485,-0.14
2.02E-10,-1.86E-10,0,0.000493,-0.142
2.12E-10,-5.30E-10,0,0.000497,-0.144
2.22E-10,-1.08E-09,0,0.0005,-0.144
2.32E-10,-1.90E-09,0,0.0005,-0.144
2.42E-10,-3.09E-09,0,0.000497,-0.144
2.52E-10,-4.76E-09,0,0.000493,-0.142
2.62E-10,-7.05E-09,0,0.000485,-0.14
2.72E-10,-1.01E-08,0,0.000476,-0.138
2.82E-10,-1.41E-08,0,0.000464,-0.135
2.92E-10,-1.94E-08,0,0.00045,-0.131
3.02E-10,-2.60E-08,0,0.000434,-0.126
3.12E-10,-3.44E-08,0,0.000416,-0.121
3.22E-10,-4.49E-08,0,0.000396,-0.116
3.32E-10,-5.79E-08,0,0.000374,-0.109
3.42E-10,-7.37E-08,0,0.00035,-0.103
3.52E-10,-9.29E-08,0,0.000325,-0.0954
3.62E-10,-1.16E-07,0,0.000298,-0.0877
3.72E-10,-1.43E-07,0,0.000269,-0.0795
3.82E-10,-1.76E-07,0,0.000239,-0.071
3.90E-10,-2.05E-07,0,0.000216,-0.0641
4.00E-10,-2.47E-07,0,0.000184,-0.0549
4.01E-10,-2.52E-07,0,0.000181,-0.0531
4.03E-10,-2.61E-07,0,0.000174,-0.0487
4.07E-10,-2.82E-07,0,0.000161,-0.0399
4.15E-10,-3.27E-07,0,0.000135,-0.0256
4.25E-10,-3.91E-07,0,0.000101,-0.0132
4.35E-10,-4.64E-07,0,6.73E-05,-0.00547
4.45E-10,-5.48E-07,0,3.30E-05,-0.00151
4.55E-10,-6.44E-07,0,-1.57E-06,-0.000812
4.65E-10,-7.53E-07,0,-3.61E-05,-0.00332
4.75E-10,-8.76E-07,0,-7.05E-05,-0.00948
4.85E-10,-1.01E-06,0,-0.000104,-0.0195
4.90E-10,-1.09E-06,0,-0.000121,-0.0271
5.00E-10,-1.25E-06,0,-0.000155,-0.0462
5.01E-10,-1.27E-06,0,-0.000158,-0.0472
5.03E-10,-1.31E-06,0,-0.000164,-0.0491
5.07E-10,-1.38E-06,0,-0.000177,-0.0529
5.15E-10,-1.54E-06,0,-0.000203,-0.0604
5.25E-10,-1.76E-06,0,-0.000234,-0.0694
5.35E-10,-2.01E-06,0,-0.000264,-0.078
5.45E-10,-2.28E-06,0,-0.000293,-0.0863
5.55E-10,-2.58E-06,0,-0.00032,-0.094
5.65E-10,-2.90E-06,0,-0.000346,-0.101
5.75E-10,-3.27E-06,0,-0.00037,-0.108
5.85E-10,-3.66E-06,0,-0.000392,-0.114
5.95E-10,-4.10E-06,0,-0.000413,-0.12
6.05E-10,-4.57E-06,0,-0.000431,-0.125
6.15E-10,-5.09E-06,0,-0.000448,-0.13
6.25E-10,-5.65E-06,0,-0.000462,-0.134
6.35E-10,-6.26E-06,0,-0.000474,-0.137
6.45E-10,-6.92E-06,0,-0.000484,-0.14
6.55E-10,-7.64E-06,0,-0.000491,-0.142
6.65E-10,-8.41E-06,0,-0.000497,-0.143
6.75E-10,-9.25E-06,0,-0.000499,-0.144
6.85E-10,-1.01E-05,0,-0.0005,-0.144
6.95E-10,-1.11E-05,0,-0.000498,-0.144
7.05E-10,-1.21E-05,0,-0.000494,-0.143
7.15E-10,-1.33E-05,0,-0.000487,-0.141
7.25E-10,-1.44E-05,0,-0.000478,-0.138
7.35E-10,-1.57E-05,0,-0.000467,-0.135
7.45E-10,-1.71E-05,0,-0.000453,-0.131
7.55E-10,-1.85E-05,0,-0.000437,-0.127
7.65E-10,-2.01E-05,0,-0.00042,-0.122
7.75E-10,-2.17E-05,0,-0.0004,-0.117
7.85E-10,-2.34E-05,0,-0.000378,-0.111
7.95E-10,-2.53E-05,0,-0.000355,-0.104
8.05E-10,-2.72E-05,0,-0.000329,-0.0968
8.15E-10,-2.93E-05,0,-0.000303,-0.0891
8.25E-10,-3.15E-05,0,-0.000275,-0.0811
8.35E-10,-3.39E-05,0,-0.000245,-0.0726
8.45E-10,-3.63E-05,0,-0.000214,-0.0637
8.55E-10,-3.89E-05,0,-0.000183,-0.0544
8.65E-10,-4.16E-05,0,-0.00015,-0.0448
8.75E-10,-4.45E-05,0,-0.000117,-0.0349
8.85E-10,-4.76E-05,0,-8.29E-05,-0.0248
8.95E-10,-5.08E-05,0,-4.86E-05,-0.0146
9.05E-10,-5.41E-05,0,-1.41E-05,-0.00424
9.15E-10,-5.77E-05,0,2.04E-05,0.00612
9.25E-10,-6.14E-05,0,5.49E-05,0.0164
9.35E-10,-6.53E-05,0,8.91E-05,0.0267
9.45E-10,-6.94E-05,0,0.000123,0.0368
9.55E-10,-7.37E-05,0,0.000156,0.0466
9.65E-10,-7.81E-05,0,0.000188,0.0561
9.75E-10,-8.28E-05,0,0.00022,0.0653
9.85E-10,-8.77E-05,0,0.00025,0.0742
9.90E-10,-9.03E-05,0,0.000265,0.0785
1.00E-09,-9.55E-05,0,0.000294,0.0867
1.00E-09,-9.60E-05,0,0.000297,0.0861
1.00E-09,-9.71E-05,0,0.000302,0.0835
1.01E-09,-9.93E-05,0,0.000313,0.0762
1.02E-09,-0.000104,0,0.000334,0.0608
1.03E-09,-0.00011,0,0.000359,0.043
1.04E-09,-0.000116,0,0.000382,0.026
1.05E-09,-0.000122,0,0.000404,0.00865
1.06E-09,-0.000129,0,0.000423,-0.00998
1.07E-09,-0.000136,0,0.00044,-0.031
1.08E-09,-0.000143,0,0.000456,-0.0561
1.09E-09,-0.00015,0,0.000469,-0.0864
1.09E-09,-0.000154,0,0.000475,-0.104
1.10E-09,-0.000162,0,0.000484,-0.14
1.10E-09,-0.000163,0,0.000485,-0.14
1.10E-09,-0.000164,0,0.000487,-0.141
1.11E-09,-0.000168,0,0.00049,-0.142
1.12E-09,-0.000175,0,0.000495,-0.143
1.13E-09,-0.000183,0,0.000498,-0.144
1.14E-09,-0.000192,0,0.0005,-0.144
1.15E-09,-0.000202,0,0.000499,-0.144
1.16E-09,-0.000211,0,0.000496,-0.143
1.17E-09,-0.000221,0,0.00049,-0.142
1.18E-09,-0.000232,0,0.000482,-0.14
1.19E-09,-0.000243,0,0.000472,-0.137
1.20E-09,-0.000254,0,0.000459,-0.133
1.21E-09,-0.000265,0,0.000445,-0.129
1.22E-09,-0.000277,0,0.000428,-0.124
1.23E-09,-0.00029,0,0.000409,-0.119
1.24E-09,-0.000302,0,0.000388,-0.113
1.25E-09,-0.000316,0,0.000366,-0.107
1.26E-09,-0.000329,0,0.000341,-0.1
1.27E-09,-0.000343,0,0.000315,-0.0927
1.28E-09,-0.000358,0,0.000288,-0.0848
1.29E-09,-0.000373,0,0.000259,-0.0765
1.30E-09,-0.000388,0,0.000228,-0.0678
1.31E-09,-0.000404,0,0.000197,-0.0587
1.31E-09,-0.00042,0,0.000165,-0.0492
1.32E-09,-0.000437,0,0.000132,-0.0395
1.33E-09,-0.000455,0,9.83E-05,-0.0294
1.34E-09,-0.000472,0,6.42E-05,-0.0192
1.35E-09,-0.000491,0,2.98E-05,-0.00894
1.36E-09,-0.00051,0,-4.71E-06,0.00141
1.37E-09,-0.000529,0,-3.92E-05,0.0118
1.38E-09,-0.000549,0,-7.36E-05,0.0221
1.39E-09,-0.000559,0,-9.06E-05,0.0272
1.40E-09,-0.00058,0,-0.000124,0.0373
1.40E-09,-0.000582,0,-0.000128,0.0376
1.40E-09,-0.000586,0,-0.000134,0.0374
1.41E-09,-0.000594,0,-0.000148,0.0356
1.42E-09,-0.000612,0,-0.000174,0.031
1.43E-09,-0.000634,0,-0.000206,0.024
1.44E-09,-0.000657,0,-0.000237,0.0156
1.45E-09,-0.00068,0,-0.000267,0.00534
1.46E-09,-0.000704,0,-0.000295,-0.00728
1.47E-09,-0.000728,0,-0.000322,-0.023
1.48E-09,-0.000754,0,-0.000348,-0.043
1.49E-09,-0.000779,0,-0.000372,-0.0684
1.49E-09,-0.000792,0,-0.000383,-0.0839
1.50E-09,-0.000819,0,-0.000405,-0.118
1.50E-09,-0.000822,0,-0.000407,-0.119
1.50E-09,-0.000827,0,-0.000411,-0.12
1.51E-09,-0.000838,0,-0.000418,-0.122
1.52E-09,-0.00086,0,-0.000433,-0.126
1.53E-09,-0.000889,0,-0.000449,-0.13
1.54E-09,-0.000917,0,-0.000463,-0.134
1.55E-09,-0.000947,0,-0.000475,-0.138
1.56E-09,-0.000977,0,-0.000485,-0.14
1.57E-09,-0.00101,0,-0.000492,-0.142
1.58E-09,-0.00104,0,-0.000497,-0.144
1.59E-09,-0.00107,0,-0.0005,-0.144
1.60E-09,-0.00111,0,-0.0005,-0.144
1.61E-09,-0.00114,0,-0.000498,-0.144
1.62E-09,-0.00117,0,-0.000493,-0.142
1.63E-09,-0.00121,0,-0.000486,-0.141
1.64E-09,-0.00124,0,-0.000477,-0.138
1.65E-09,-0.00128,0,-0.000465,-0.135
1.66E-09,-0.00132,0,-0.000452,-0.131
1.67E-09,-0.00136,0,-0.000436,-0.127
1.67E-09,-0.0014,0,-0.000418,-0.122
1.68E-09,-0.00144,0,-0.000398,-0.116
1.69E-09,-0.00148,0,-0.000376,-0.11
1.70E-09,-0.00152,0,-0.000352,-0.103
1.71E-09,-0.00156,0,-0.000327,-0.0961
1.72E-09,-0.0016,0,-0.0003,-0.0884
1.73E-09,-0.00165,0,-0.000272,-0.0803
1.74E-09,-0.00169,0,-0.000242,-0.0718
1.75E-09,-0.00173,0,-0.000211,-0.0628
1.76E-09,-0.00178,0,-0.00018,-0.0535
1.77E-09,-0.00183,0,-0.000147,-0.0439
1.78E-09,-0.00187,0,-0.000114,-0.034
1.79E-09,-0.00192,0,-7.98E-05,-0.0239
1.80E-09,-0.00197,0,-4.55E-05,-0.0136
1.81E-09,-0.00202,0,-1.10E-05,-0.00329
1.82E-09,-0.00207,0,2.36E-05,0.00706
1.83E-09,-0.00213,0,5.80E-05,0.0174
1.84E-09,-0.00218,0,9.21E-05,0.0276
1.85E-09,-0.00223,0,0.000126,0.0377
1.86E-09,-0.00229,0,0.000159,0.0475
1.87E-09,-0.00234,0,0.000191,0.057
1.88E-09,-0.0024,0,0.000223,0.0661
1.89E-09,-0.00245,0,0.000253,0.0749
1.91E-09,-0.00251,0,0.000282,0.0833
1.92E-09,-0.00257,0,0.00031,0.0913
1.93E-09,-0.00263,0,0.000337,0.0988
1.94E-09,-0.00269,0,0.000361,0.106
1.95E-09,-0.00275,0,0.000384,0.112
1.96E-09,-0.00281,0,0.000405,0.118
1.97E-09,-0.00288,0,0.000425,0.124
1.98E-09,-0.00294,0,0.000442,0.128
1.99E-09,-0.00301,0,0.000457,0.133
1.99E-09,-0.00304,0,0.000464,0.134
2.00E-09,-0.00311,0,0.000476,0.138
2.00E-09,-0.00311,0,0.000477,0.136
2.00E-09,-0.00313,0,0.000479,0.131
2.01E-09,-0.00315,0,0.000482,0.118
2.01E-09,-0.00321,0,0.000489,0.0906
2.02E-09,-0.00328,0,0.000495,0.0604
2.03E-09,-0.00335,0,0.000499,0.0347
2.04E-09,-0.00342,0,0.0005,0.0113
2.05E-09,-0.00349,0,0.000499,-0.0112
2.06E-09,-0.00356,0,0.000495,-0.0344
2.07E-09,-0.00363,0,0.00049,-0.0597
2.08E-09,-0.00371,0,0.000481,-0.0884
2.09E-09,-0.00375,0,0.000476,-0.104
2.10E-09,-0.00382,0,0.000465,-0.135
2.10E-09,-0.00383,0,0.000464,-0.135
2.10E-09,-0.00384,0,0.000461,-0.134
2.11E-09,-0.00387,0,0.000455,-0.132
2.12E-09,-0.00394,0,0.000443,-0.129
2.13E-09,-0.00401,0,0.000426,-0.124
2.14E-09,-0.00409,0,0.000407,-0.119
2.15E-09,-0.00417,0,0.000386,-0.113
2.16E-09,-0.00425,0,0.000363,-0.106
2.17E-09,-0.00434,0,0.000339,-0.0994
2.18E-09,-0.00442,0,0.000313,-0.092
2.19E-09,-0.0045,0,0.000285,-0.0841
2.20E-09,-0.00459,0,0.000256,-0.0757
2.21E-09,-0.00467,0,0.000226,-0.0669
2.22E-09,-0.00476,0,0.000194,-0.0578
2.23E-09,-0.00485,0,0.000162,-0.0483
2.24E-09,-0.00493,0,0.000129,-0.0386
2.25E-09,-0.00502,0,9.52E-05,-0.0285
2.26E-09,-0.00511,0,6.11E-05,-0.0183
2.27E-09,-0.0052,0,2.67E-05,-0.008
2.28E-09,-0.0053,0,-7.85E-06,0.00235
2.29E-09,-0.00539,0,-4.24E-05,0.0127
2.30E-09,-0.00548,0,-7.67E-05,0.023
2.31E-09,-0.00558,0,-0.000111,0.0331
2.32E-09,-0.00567,0,-0.000144,0.043
2.33E-09,-0.00577,0,-0.000177,0.0527
2.34E-09,-0.00587,0,-0.000209,0.062
2.35E-09,-0.00597,0,-0.000239,0.071
2.36E-09,-0.00607,0,-0.000269,0.0796
2.37E-09,-0.00617,0,-0.000298,0.0877
2.38E-09,-0.00627,0,-0.000325,0.0954
2.39E-09,-0.00637,0,-0.00035,0.103
2.39E-09,-0.00642,0,-0.000362,0.106
2.40E-09,-0.00652,0,-0.000385,0.113
2.40E-09,-0.00653,0,-0.000387,0.111
2.40E-09,-0.00655,0,-0.000392,0.108
2.41E-09,-0.0066,0,-0.0004,0.0976
2.41E-09,-0.00668,0,-0.000416,0.0764
2.42E-09,-0.00678,0,-0.000434,0.0525
2.43E-09,-0.00689,0,-0.00045,0.0309
2.44E-09,-0.007,0,-0.000464,0.0102
2.45E-09,-0.00711,0,-0.000476,-0.011
2.46E-09,-0.00721,0,-0.000485,-0.034
2.47E-09,-0.00732,0,-0.000493,-0.0604
2.48E-09,-0.00743,0,-0.000497,-0.0917
2.49E-09,-0.00749,0,-0.000499,-0.109
2.50E-09,-0.0076,0,-0.0005,-0.145
2.50E-09,-0.00761,0,-0.0005,-0.145
2.50E-09,-0.00763,0,-0.0005,-0.145
2.51E-09,-0.00768,0,-0.000499,-0.144
2.52E-09,-0.00777,0,-0.000497,-0.144
2.53E-09,-0.00788,0,-0.000493,-0.142
2.54E-09,-0.008,0,-0.000485,-0.14
2.55E-09,-0.00811,0,-0.000476,-0.138
2.56E-09,-0.00823,0,-0.000464,-0.135
2.57E-09,-0.00834,0,-0.00045,-0.131
2.58E-09,-0.00846,0,-0.000434,-0.126
2.59E-09,-0.00858,0,-0.000416,-0.121
2.60E-09,-0.0087,0,-0.000396,-0.116
2.61E-09,-0.00882,0,-0.000374,-0.109
2.62E-09,-0.00894,0,-0.00035,-0.103
2.63E-09,-0.00906,0,-0.000325,-0.0954
2.64E-09,-0.00918,0,-0.000298,-0.0877
2.65E-09,-0.0093,0,-0.000269,-0.0796
2.66E-09,-0.00942,0,-0.000239,-0.071
2.67E-09,-0.00955,0,-0.000209,-0.062
2.68E-09,-0.00967,0,-0.000177,-0.0527
2.69E-09,-0.0098,0,-0.000144,-0.043
2.70E-09,-0.00992,0,-0.000111,-0.0331
2.71E-09,-0.01,0,-7.67E-05,-0.023
2.72E-09,-0.0102,0,-4.24E-05,-0.0127
2.73E-09,-0.0103,0,-7.85E-06,-0.00235
2.74E-09,-0.0104,0,2.67E-05,0.008
2.75E-09,-0.0106,0,6.11E-05,0.0183
2.76E-09,-0.0107,0,9.52E-05,0.0285
2.77E-09,-0.0108,0,0.000129,0.0386
2.78E-09,-0.0109,0,0.000162,0.0483
2.79E-09,-0.0111,0,0.000194,0.0578
2.80E-09,-0.0112,0,0.000226,0.0669
2.81E-09,-0.0113,0,0.000256,0.0757
2.82E-09,-0.0115,0,0.000285,0.0841
2.83E-09,-0.0116,0,0.000313,0.092
2.84E-09,-0.0117,0,0.000339,0.0994
2.85E-09,-0.0119,0,0.000363,0.106
2.86E-09,-0.012,0,0.000386,0.113
2.87E-09,-0.0121,0,0.000407,0.119
2.88E-09,-0.0123,0,0.000426,0.124
2.89E-09,-0.0124,0,0.000443,0.129
2.90E-09,-0.0125,0,0.000458,0.133
2.91E-09,-0.0127,0,0.000471,0.136
2.92E-09,-0.0128,0,0.000481,0.139
2.93E-09,-0.0129,0,0.00049,0.142
2.94E-09,-0.0131,0,0.000495,0.143
2.95E-09,-0.0132,0,0.000499,0.144
2.96E-09,-0.0133,0,0.0005,0.144
2.97E-09,-0.0135,0,0.000499,0.144
2.98E-09,-0.0136,0,0.000495,0.143
2.99E-09,-0.0138,0,0.000489,0.141
2.99E-09,-0.0138,0,0.000485,0.14
3.00E-09,-0.014,0,0.000476,0.138
3.00E-09,-0.014,0,0.000474,0.135
3.00E-09,-0.014,0,0.000472,0.129
3.01E-09,-0.0141,0,0.000467,0.115
3.01E-09,-0.0142,0,0.000457,0.0851
3.02E-09,-0.0143,0,0.000442,0.0544
3.03E-09,-0.0144,0,0.000425,0.0299
3.04E-09,-0.0146,0,0.000405,0.00962
3.05E-09,-0.0147,0,0.000384,-0.00817
3.06E-09,-0.0149,0,0.000361,-0.0245
3.07E-09,-0.015,0,0.000337,-0.0402
3.08E-09,-0.0151,0,0.00031,-0.0561
3.09E-09,-0.0152,0,0.000296,-0.0641
3.10E-09,-0.0153,0,0.000268,-0.0793
3.10E-09,-0.0154,0,0.000265,-0.0784
3.10E-09,-0.0154,0,0.000259,-0.0767
3.11E-09,-0.0154,0,0.000247,-0.0733
3.12E-09,-0.0155,0,0.000223,-0.0662
3.13E-09,-0.0157,0,0.000191,-0.057
3.14E-09,-0.0158,0,0.000159,-0.0475
3.15E-09,-0.016,0,0.000126,-0.0377
3.16E-09,-0.0161,0,9.21E-05,-0.0276
3.17E-09,-0.0162,0,5.80E-05,-0.0174
3.18E-09,-0.0164,0,2.36E-05,-0.00706
3.19E-09,-0.0165,0,-1.10E-05,0.00329
3.20E-09,-0.0166,0,-4.55E-05,0.0136
3.21E-09,-0.0168,0,-7.98E-05,0.0239
3.22E-09,-0.0169,0,-0.000114,0.034
3.23E-09,-0.0171,0,-0.000147,0.0439
3.24E-09,-0.0172,0,-0.00018,0.0535
3.25E-09,-0.0173,0,-0.000211,0.0628
3.26E-09,-0.0175,0,-0.000242,0.0718
3.27E-09,-0.0176,0,-0.000272,0.0803
3.28E-09,-0.0177,0,-0.0003,0.0884
3.29E-09,-0.0179,0,-0.000327,0.0961
3.30E-09,-0.018,0,-0.000352,0.103
3.31E-09,-0.0181,0,-0.000376,0.11
3.32E-09,-0.0183,0,-0.000398,0.116
3.33E-09,-0.0184,0,-0.000418,0.122
3.34E-09,-0.0185,0,-0.000436,0.127
3.35E-09,-0.0187,0,-0.000452,0.131
3.36E-09,-0.0188,0,-0.000465,0.135
3.37E-09,-0.0189,0,-0.000477,0.138
3.38E-09,-0.0191,0,-0.000486,0.141
3.39E-09,-0.0192,0,-0.000493,0.143
3.39E-09,-0.0193,0,-0.000496,0.143
3.40E-09,-0.0194,0,-0.000499,0.144
3.40E-09,-0.0194,0,-0.000499,0.142
3.40E-09,-0.0194,0,-0.0005,0.136
3.41E-09,-0.0195,0,-0.0005,0.122
3.41E-09,-0.0196,0,-0.0005,0.0929
3.42E-09,-0.0197,0,-0.000497,0.0609
3.43E-09,-0.0198,0,-0.000492,0.0344
3.44E-09,-0.02,0,-0.000485,0.0112
3.45E-09,-0.0201,0,-0.000475,-0.0105
3.46E-09,-0.0202,0,-0.000463,-0.0319
3.47E-09,-0.0203,0,-0.000449,-0.0544
3.48E-09,-0.0205,0,-0.000433,-0.0791
3.49E-09,-0.0205,0,-0.000424,-0.0922
3.50E-09,-0.0206,0,-0.000405,-0.118
3.50E-09,-0.0207,0,-0.000402,-0.117
3.50E-09,-0.0207,0,-0.000398,-0.116
3.51E-09,-0.0207,0,-0.00039,-0.114
3.52E-09,-0.0208,0,-0.000372,-0.109
3.53E-09,-0.0209,0,-0.000348,-0.102
3.54E-09,-0.0211,0,-0.000322,-0.0947
3.55E-09,-0.0212,0,-0.000295,-0.087
3.56E-09,-0.0213,0,-0.000267,-0.0788
3.57E-09,-0.0214,0,-0.000237,-0.0702
3.58E-09,-0.0215,0,-0.000206,-0.0612
3.59E-09,-0.0217,0,-0.000174,-0.0518
3.60E-09,-0.0218,0,-0.000141,-0.0421
3.61E-09,-0.0219,0,-0.000108,-0.0322
3.62E-09,-0.022,0,-7.36E-05,-0.022
3.63E-09,-0.0221,0,-3.92E-05,-0.0118
3.64E-09,-0.0222,0,-4.71E-06,-0.00141
3.65E-09,-0.0223,0,2.98E-05,0.00894
3.66E-09,-0.0224,0,6.42E-05,0.0192
3.67E-09,-0.0225,0,9.83E-05,0.0294
3.68E-09,-0.0227,0,0.000132,0.0395
3.69E-09,-0.0228,0,0.000165,0.0492
3.70E-09,-0.0229,0,0.000197,0.0587
3.71E-09,-0.023,0,0.000228,0.0678
3.72E-09,-0.0231,0,0.000259,0.0765
3.73E-09,-0.0232,0,0.000288,0.0848
3.74E-09,-0.0233,0,0.000315,0.0927
3.75E-09,-0.0234,0,0.000341,0.1
3.76E-09,-0.0235,0,0.000366,0.107
3.77E-09,-0.0236,0,0.000388,0.113
3.78E-09,-0.0237,0,0.000409,0.119
3.79E-09,-0.0237,0,0.000428,0.124
3.80E-09,-0.0238,0,0.000445,0.129
3.81E-09,-0.0239,0,0.000459,0.133
3.82E-09,-0.024,0,0.000472,0.137
3.83E-09,-0.0241,0,0.000482,0.14
3.84E-09,-0.0242,0,0.00049,0.142
3.85E-09,-0.0243,0,0.000496,0.143
3.86E-09,-0.0244,0,0.000499,0.144
3.87E-09,-0.0244,0,0.0005,0.144
3.88E-09,-0.0245,0,0.000498,0.144
3.89E-09,-0.0246,0,0.000495,0.143
3.90E-09,-0.0247,0,0.000488,0.141
3.91E-09,-0.0248,0,0.00048,0.139
3.92E-09,-0.0248,0,0.000469,0.136
3.93E-09,-0.0249,0,0.000456,0.132
3.93E-09,-0.025,0,0.00044,0.128
3.94E-09,-0.0251,0,0.000423,0.123
3.95E-09,-0.0251,0,0.000404,0.118
3.96E-09,-0.0252,0,0.000382,0.112
3.97E-09,-0.0253,0,0.000359,0.105
3.98E-09,-0.0253,0,0.000334,0.0982
3.99E-09,-0.0253,0,0.000321,0.0945
4.00E-09,-0.0254,0,0.000294,0.0867
4.00E-09,-0.0254,0,0.000291,0.0845
4.00E-09,-0.0254,0,0.000285,0.0791
4.01E-09,-0.0255,0,0.000274,0.0673
4.02E-09,-0.0255,0,0.00025,0.0468
4.03E-09,-0.0256,0,0.00022,0.0275
4.03E-09,-0.0256,0,0.000188,0.0138
4.04E-09,-0.0257,0,0.000156,0.00424
4.05E-09,-0.0257,0,0.000123,-0.00201
4.06E-09,-0.0258,0,8.91E-05,-0.00533
4.07E-09,-0.0258,0,5.49E-05,-0.00568
4.08E-09,-0.0259,0,2.04E-05,-0.00314
4.09E-09,-0.0259,0,3.14E-06,9.54E-06
4.10E-09,-0.0259,0,-3.14E-05,0.00942
4.10E-09,-0.0259,0,-3.48E-05,0.0105
4.10E-09,-0.0259,0,-4.17E-05,0.0125
4.11E-09,-0.026,0,-5.55E-05,0.0166
4.12E-09,-0.026,0,-8.29E-05,0.0248
4.13E-09,-0.026,0,-0.000117,0.0349
4.13E-09,-0.0261,0,-0.00015,0.0448
4.14E-09,-0.0261,0,-0.000183,0.0544
4.15E-09,-0.0261,0,-0.000214,0.0637
4.16E-09,-0.0262,0,-0.000245,0.0726
4.17E-09,-0.0262,0,-0.000275,0.0811
4.18E-09,-0.0262,0,-0.000303,0.0891
4.19E-09,-0.0263,0,-0.000329,0.0968
4.20E-09,-0.0263,0,-0.000355,0.104
4.21E-09,-0.0263,0,-0.000378,0.111
4.22E-09,-0.0263,0,-0.0004,0.117
4.23E-09,-0.0263,0,-0.00042,0.122
4.24E-09,-0.0264,0,-0.000437,0.127
4.25E-09,-0.0264,0,-0.000453,0.131
4.26E-09,-0.0264,0,-0.000467,0.135
4.27E-09,-0.0264,0,-0.000478,0.138
4.28E-09,-0.0264,0,-0.000487,0.141
4.29E-09,-0.0264,0,-0.000494,0.143
4.30E-09,-0.0264,0,-0.000498,0.144
4.31E-09,-0.0264,0,-0.0005,0.144
4.32E-09,-0.0264,0,-0.000499,0.144
4.33E-09,-0.0264,0,-0.000497,0.143
4.34E-09,-0.0264,0,-0.000491,0.142
4.35E-09,-0.0264,0,-0.000484,0.14
4.36E-09,-0.0264,0,-0.000474,0.137
4.37E-09,-0.0264,0,-0.000462,0.134
4.38E-09,-0.0264,0,-0.000448,0.13
4.39E-09,-0.0264,0,-0.00044,0.128
4.40E-09,-0.0264,0,-0.000422,0.123
4.40E-09,-0.0264,0,-0.00042,0.12
4.40E-09,-0.0264,0,-0.000417,0.114
4.41E-09,-0.0263,0,-0.000409,0.1
4.42E-09,-0.0263,0,-0.000392,0.0731
4.43E-09,-0.0263,0,-0.00037,0.0457
4.44E-09,-0.0263,0,-0.000346,0.0246
4.44E-09,-0.0263,0,-0.00032,0.00781
4.45E-09,-0.0262,0,-0.000293,-0.00595
4.46E-09,-0.0262,0,-0.000264,-0.0175
4.47E-09,-0.0262,0,-0.000234,-0.0275
4.48E-09,-0.0261,0,-0.000203,-0.0364
4.49E-09,-0.0261,0,-0.000187,-0.0401
4.50E-09,-0.0261,0,-0.000155,-0.0462
4.50E-09,-0.0261,0,-0.000151,-0.0452
4.50E-09,-0.0261,0,-0.000145,-0.0433
4.51E-09,-0.0261,0,-0.000131,-0.0393
4.52E-09,-0.026,0,-0.000104,-0.0313
